# Hz S RI R 50
2200000000.0 0.9811883719580755 -0.13166477975858232
2205000000.0 0.9803829873710224 -0.13439496572454346
2210000000.0 0.9795273677975436 -0.13723077699217742
2215000000.0 0.9786173252677286 -0.14017829158588446
2220000000.0 0.9776482320918316 -0.14324404445842026
2225000000.0 0.9766149649765794 -0.14643506893870206
2230000000.0 0.975511840785205 -0.149758942403376
2235000000.0 0.9743325425024577 -0.1532238366077199
2240000000.0 0.9730700336855506 -0.15683857314407915
2245000000.0 0.9717164593408277 -0.16061268452461208
2250000000.0 0.9702630307493725 -0.16455648140587764
2255000000.0 0.9686998912545238 -0.16868112648020048
2260000000.0 0.9670159593972628 -0.1729987155446651
2265000000.0 0.9651987450124486 -0.1775223662112506
2270000000.0 0.9632341329429429 -0.18226631462398454
2275000000.0 0.9611061278426204 -0.1872460203765127
2280000000.0 0.958796552063303 -0.19247827954075603
2285000000.0 0.956284686778358 -0.1979813452734213
2290000000.0 0.9535468441897834 -0.20377505478855928
2295000000.0 0.9505558557721197 -0.20988096046505475
2300000000.0 0.9472804578679211 -0.21632246134436575
2305000000.0 0.9436845513664741 -0.22312492904321718
2310000000.0 0.9397263064195689 -0.23031581883403596
2315000000.0 0.9353570758646308 -0.23792475185910528
2320000000.0 0.9305200718580211 -0.24598354744862355
2325000000.0 0.9251487487234366 -0.2545261742873181
2330000000.0 0.9191648206936596 -0.263588574212831
2335000000.0 0.9124758255688304 -0.27320829050304496
2340000000.0 0.9049721239511377 -0.28342380031401243
2345000000.0 0.8965231986417549 -0.2942734035605433
2350000000.0 0.8869730908931391 -0.3057934507162382
2355000000.0 0.8761347822898033 -0.3180155890117579
2360000000.0 0.8637833096821865 -0.33096255461125573
2365000000.0 0.8496473997887579 -0.3446418149076733
2370000000.0 0.8333994576936149 -0.3590360384263806
2375000000.0 0.8146438931201956 -0.37408889798015854
2380000000.0 0.7929041202590192 -0.389684045793952
2385000000.0 0.7676093032687467 -0.4056141928675753
2390000000.0 0.7380833609539743 -0.4215360809750306
2395000000.0 0.7035414285108718 -0.4369059086094619
2400000000.0 0.6631037349285825 -0.4508890109639071
2405000000.0 0.6158447904683316 -0.46223874743883836
2410000000.0 0.5609077858984662 -0.4691458810157541
2415000000.0 0.49772915473681806 -0.4690775812443944
2420000000.0 0.4264288804183209 -0.45866444854077526
2425000000.0 0.3484057994109944 -0.43376354478175033
2430000000.0 0.2670876477666838 -0.38991373928993606
2435000000.0 0.1885685874071701 -0.32343099083367655
2440000000.0 0.1215525155568062 -0.23318885481205961
2445000000.0 0.0758974871564605 -0.12252845052404973
2450000000.0 0.05965121471464277 0.0
2455000000.0 0.07583244956731136 0.1222872527157544
2460000000.0 0.12108212803404517 0.2323633525485768
2465000000.0 0.1872124368586549 0.32199406034547196
2470000000.0 0.26445996702872465 0.38813017974631336
2475000000.0 0.3443383166927019 0.4320398413327302
2480000000.0 0.420964578376861 0.4573983339128238
2485000000.0 0.4910498516213014 0.4685727267607583
2490000000.0 0.5532562483977443 0.4695902091796064
2495000000.0 0.6074691363802915 0.4637191411811366
2500000000.0 0.6542270783701836 0.45341838682032704
2505000000.0 0.6943499410230882 0.44044943311207374
2510000000.0 0.7287250334588834 0.42603166290004896
2515000000.0 0.7581978085534019 0.4109867360606283
2520000000.0 0.7835244557993116 0.39585458668066464
2525000000.0 0.8053581074422682 0.3809800531443221
2530000000.0 0.8242517287181408 0.36657498353997875
2535000000.0 0.8406682425460762 0.35276169809918756
2540000000.0 0.8549929297904078 0.3396029621758458
2545000000.0 0.8675456861573586 0.3271224661685719
2550000000.0 0.8785920873332872 0.3153187307187538
2555000000.0 0.8883529190998896 0.30417449964051746
2560000000.0 0.8970121697699684 0.2936630516093145
2565000000.0 0.9047236299408156 0.28375241348735275
2570000000.0 0.9116162940378499 0.27440814685596
2575000000.0 0.9177987604221406 0.2655951656146137
2580000000.0 0.9233628086743453 0.2572788966792185
2585000000.0 0.9283863075548596 0.2494259965499982
2590000000.0 0.932935581549864 0.242004768968298
2595000000.0 0.9370673406554507 0.23498538285869414
2600000000.0 0.9408302580892598 0.2283399583376264
2605000000.0 0.944266264028927 0.22204256707784667
2610000000.0 0.947411609953041 0.21606917858185928
2615000000.0 0.950297747265181 0.2103975737935612
2620000000.0 0.9529520551654418 0.20500724051163075
2625000000.0 0.9553984457881047 0.19987926027199032
2630000000.0 0.957657869099059 0.19499619306504695
2635000000.0 0.9597487356530386 0.19034196398413042
2640000000.0 0.9616872718144256 0.18590175434688955
2645000000.0 0.9634878192589222 0.18166189877220504
2650000000.0 0.9651630883482112 0.17760978897971377
2655000000.0 0.9667243731884482 0.1737337846020454
2660000000.0 0.9681817347536837 0.17002313098803898
2665000000.0 0.9695441573044064 0.16646788377745597
2670000000.0 0.9708196824021724 0.16305883990832237
2675000000.0 0.9720155240686982 0.15978747465210588
2680000000.0 0.973138168026368 0.1566458842420206
2685000000.0 0.9741934574587949 0.1536267336537035
2690000000.0 0.9751866673226443 0.15072320910687834
2695000000.0 0.9761225689077923 0.14792897487554368
2700000000.0 0.9770054860679843 0.1452381340186816
