# Hz S MA R 50
5.000000e+09 1.000000e+00 0 0.000000e+00 -0.000000e+00 0.000000e+00 -0.000000e+00 1.000000e+00 0
5.100000e+09 1.000000e+00 0 0.000000e+00 -0.000000e+00 0.000000e+00 -0.000000e+00 1.000000e+00 0
5.200000e+09 1.000000e+00 0 0.000000e+00 -0.000000e+00 0.000000e+00 -0.000000e+00 1.000000e+00 0
5.300000e+09 1.000000e+00 0 0.000000e+00 -0.000000e+00 0.000000e+00 -0.000000e+00 1.000000e+00 0
5.400000e+09 1.000000e+00 0 0.000000e+00 -0.000000e+00 0.000000e+00 -0.000000e+00 1.000000e+00 0
5.500000e+09 1.000000e+00 0 0.000000e+00 -0.000000e+00 0.000000e+00 -0.000000e+00 1.000000e+00 0
5.600000e+09 1.000000e+00 0 0.000000e+00 -0.000000e+00 0.000000e+00 -0.000000e+00 1.000000e+00 0
5.700000e+09 1.000000e+00 0 0.000000e+00 -0.000000e+00 0.000000e+00 -0.000000e+00 1.000000e+00 0
5.800000e+09 1.000000e+00 0 0.000000e+00 -0.000000e+00 0.000000e+00 -0.000000e+00 1.000000e+00 0
5.900000e+09 1.000000e+00 0 0.000000e+00 -0.000000e+00 0.000000e+00 -0.000000e+00 1.000000e+00 0
6.000000e+09 1.000000e+00 0 0.000000e+00 -0.000000e+00 0.000000e+00 -0.000000e+00 1.000000e+00 0
6.100000e+09 1.000000e+00 0 0.000000e+00 -0.000000e+00 0.000000e+00 -0.000000e+00 1.000000e+00 0
6.200000e+09 1.000000e+00 0 0.000000e+00 -0.000000e+00 0.000000e+00 -0.000000e+00 1.000000e+00 0
6.300000e+09 1.000000e+00 0 0.000000e+00 -0.000000e+00 0.000000e+00 -0.000000e+00 1.000000e+00 0
6.400000e+09 1.000000e+00 0 0.000000e+00 -0.000000e+00 0.000000e+00 -0.000000e+00 1.000000e+00 0
6.500000e+09 1.000000e+00 0 0.000000e+00 -0.000000e+00 0.000000e+00 -0.000000e+00 1.000000e+00 0
6.600000e+09 0.000000e+00 0 1.000000e+00 -4.508756e+01 1.000000e+00 -4.508756e+01 0.000000e+00 0
6.700000e+09 0.000000e+00 0 1.000000e+00 -8.262881e+01 1.000000e+00 -8.262881e+01 0.000000e+00 0
6.800000e+09 0.000000e+00 0 1.000000e+00 -1.081400e+02 1.000000e+00 -1.081400e+02 0.000000e+00 0
6.900000e+09 0.000000e+00 0 1.000000e+00 -1.289693e+02 1.000000e+00 -1.289693e+02 0.000000e+00 0
7.000000e+09 0.000000e+00 0 1.000000e+00 -1.471190e+02 1.000000e+00 -1.471190e+02 0.000000e+00 0
7.100000e+09 0.000000e+00 0 1.000000e+00 -1.634841e+02 1.000000e+00 -1.634841e+02 0.000000e+00 0
7.200000e+09 0.000000e+00 0 1.000000e+00 -1.785558e+02 1.000000e+00 -1.785558e+02 0.000000e+00 0
7.300000e+09 0.000000e+00 0 1.000000e+00 -1.926380e+02 1.000000e+00 -1.926380e+02 0.000000e+00 0
7.400000e+09 0.000000e+00 0 1.000000e+00 -2.059338e+02 1.000000e+00 -2.059338e+02 0.000000e+00 0
7.500000e+09 0.000000e+00 0 1.000000e+00 -2.185867e+02 1.000000e+00 -2.185867e+02 0.000000e+00 0
7.600000e+09 0.000000e+00 0 1.000000e+00 -2.307026e+02 1.000000e+00 -2.307026e+02 0.000000e+00 0
7.700000e+09 0.000000e+00 0 1.000000e+00 -2.423620e+02 1.000000e+00 -2.423620e+02 0.000000e+00 0
7.800000e+09 0.000000e+00 0 1.000000e+00 -2.536278e+02 1.000000e+00 -2.536278e+02 0.000000e+00 0
7.900000e+09 0.000000e+00 0 1.000000e+00 -2.645503e+02 1.000000e+00 -2.645503e+02 0.000000e+00 0
8.000000e+09 0.000000e+00 0 1.000000e+00 -2.751705e+02 1.000000e+00 -2.751705e+02 0.000000e+00 0
8.100000e+09 0.000000e+00 0 1.000000e+00 -2.855220e+02 1.000000e+00 -2.855220e+02 0.000000e+00 0
8.200000e+09 0.000000e+00 0 1.000000e+00 -2.956332e+02 1.000000e+00 -2.956332e+02 0.000000e+00 0
8.300000e+09 0.000000e+00 0 1.000000e+00 -3.055277e+02 1.000000e+00 -3.055277e+02 0.000000e+00 0
8.400000e+09 0.000000e+00 0 1.000000e+00 -3.152261e+02 1.000000e+00 -3.152261e+02 0.000000e+00 0
8.500000e+09 0.000000e+00 0 1.000000e+00 -3.247460e+02 1.000000e+00 -3.247460e+02 0.000000e+00 0
8.600000e+09 0.000000e+00 0 1.000000e+00 -3.341025e+02 1.000000e+00 -3.341025e+02 0.000000e+00 0
8.700000e+09 0.000000e+00 0 1.000000e+00 -3.433090e+02 1.000000e+00 -3.433090e+02 0.000000e+00 0
8.800000e+09 0.000000e+00 0 1.000000e+00 -3.523774e+02 1.000000e+00 -3.523774e+02 0.000000e+00 0
8.900000e+09 0.000000e+00 0 1.000000e+00 -3.613179e+02 1.000000e+00 -3.613179e+02 0.000000e+00 0
9.000000e+09 0.000000e+00 0 1.000000e+00 -3.701399e+02 1.000000e+00 -3.701399e+02 0.000000e+00 0
9.100000e+09 0.000000e+00 0 1.000000e+00 -3.788517e+02 1.000000e+00 -3.788517e+02 0.000000e+00 0
9.200000e+09 0.000000e+00 0 1.000000e+00 -3.874606e+02 1.000000e+00 -3.874606e+02 0.000000e+00 0
9.300000e+09 0.000000e+00 0 1.000000e+00 -3.959734e+02 1.000000e+00 -3.959734e+02 0.000000e+00 0
9.400000e+09 0.000000e+00 0 1.000000e+00 -4.043962e+02 1.000000e+00 -4.043962e+02 0.000000e+00 0
9.500000e+09 0.000000e+00 0 1.000000e+00 -4.127344e+02 1.000000e+00 -4.127344e+02 0.000000e+00 0
9.600000e+09 0.000000e+00 0 1.000000e+00 -4.209931e+02 1.000000e+00 -4.209931e+02 0.000000e+00 0
9.700000e+09 0.000000e+00 0 1.000000e+00 -4.291769e+02 1.000000e+00 -4.291769e+02 0.000000e+00 0
9.800000e+09 0.000000e+00 0 1.000000e+00 -4.372900e+02 1.000000e+00 -4.372900e+02 0.000000e+00 0
9.900000e+09 0.000000e+00 0 1.000000e+00 -4.453363e+02 1.000000e+00 -4.453363e+02 0.000000e+00 0
1.000000e+10 0.000000e+00 0 1.000000e+00 -4.533192e+02 1.000000e+00 -4.533192e+02 0.000000e+00 0
